T1BB0 000:007.331   SEGGER J-Link V8.44a Log File
T1BB0 000:007.493   DLL Compiled: Jun 18 2025 16:28:32
T1BB0 000:007.512   Logging started @ 2025-11-24 10:35
T1BB0 000:007.529   Process: C:\Keil_v5\UV4\UV4.exe
T1BB0 000:007.551 - 7.546ms 
T1BB0 000:007.574 JLINK_SetWarnOutHandler(...)
T1BB0 000:007.591 - 0.019ms 
T1BB0 000:007.611 JLINK_OpenEx(...)
T1BB0 000:012.317   Firmware: J-Link OB-Mini Plus-CortexM compiled Mar  8 2099 11:15:54
T1BB0 000:014.512   Firmware: J-Link OB-Mini Plus-CortexM compiled Mar  8 2099 11:15:54
T1BB0 000:021.902   Hardware: V1.00
T1BB0 000:021.969   S/N: 63728769
T1BB0 000:022.009   OEM: SEGGER
T1BB0 000:022.048   Feature(s): GDB, RDI, FlashBP, FlashDL, JFlash
T1BB0 000:024.314   Bootloader: (FW returned invalid version)
T1BB0 000:027.266   TELNET listener socket opened on port 19021
T1BB0 000:027.719   WEBSRV WEBSRV_Init(): Starting webserver thread(s)
T1BB0 000:028.101   WEBSRV Webserver running on local port 19080
T1BB0 000:028.398   Looking for J-Link GUI Server exe at: C:\Keil_v5\ARM\Segger\JLinkGUIServer.exe
T1BB0 000:028.611   Looking for J-Link GUI Server exe at: C:\Program Files\SEGGER\JLink_V844a\JLinkGUIServer.exe
T1BB0 000:028.683   Forking J-Link GUI Server: C:\Program Files\SEGGER\JLink_V844a\JLinkGUIServer.exe
T1BB0 000:058.341   J-Link GUI Server info: "J-Link GUI server V8.44a "
T1BB0 000:061.860 - 54.239ms returns "O.K."
T1BB0 000:061.945 JLINK_GetEmuCaps()
T1BB0 000:061.979 - 0.034ms returns 0xB8EA5A33
T1BB0 000:062.018 JLINK_TIF_GetAvailable(...)
T1BB0 000:062.812 - 0.792ms 
T1BB0 000:062.863 JLINK_SetErrorOutHandler(...)
T1BB0 000:062.893 - 0.030ms 
T1BB0 000:062.945 JLINK_ExecCommand("ProjectFile = "D:\workspace\xyz_back\hc32\HC32F460xE_Arduino\Platform\project\JLinkSettings.ini"", ...). 
T1BB0 000:075.190 - 12.246ms returns 0x00
T1BB0 000:078.790 JLINK_ExecCommand("Device = HC32F460JEUA", ...). 
T1BB0 000:082.247   Device "HC32F460XE" selected.
T1BB0 000:082.697 - 3.850ms returns 0x00
T1BB0 000:082.725 JLINK_ExecCommand("DisableConnectionTimeout", ...). 
T1BB0 000:082.749   ERROR: Unknown command
T1BB0 000:082.774 - 0.030ms returns 0x01
T1BB0 000:082.793 JLINK_GetHardwareVersion()
T1BB0 000:082.812 - 0.017ms returns 10000
T1BB0 000:082.829 JLINK_GetDLLVersion()
T1BB0 000:082.846 - 0.016ms returns 84401
T1BB0 000:082.864 JLINK_GetOEMString(...)
T1BB0 000:082.882 JLINK_GetFirmwareString(...)
T1BB0 000:082.899 - 0.016ms 
T1BB0 000:092.866 JLINK_GetDLLVersion()
T1BB0 000:092.908 - 0.041ms returns 84401
T1BB0 000:092.927 JLINK_GetCompileDateTime()
T1BB0 000:092.944 - 0.016ms 
T1BB0 000:095.126 JLINK_GetFirmwareString(...)
T1BB0 000:095.182 - 0.055ms 
T1BB0 000:097.444 JLINK_GetHardwareVersion()
T1BB0 000:097.484 - 0.038ms returns 10000
T1BB0 000:100.206 JLINK_GetSN()
T1BB0 000:100.242 - 0.035ms returns 63728769
T1BB0 000:102.116 JLINK_GetOEMString(...)
T1BB0 000:105.770 JLINK_TIF_Select(JLINKARM_TIF_SWD)
T1BB0 000:108.640 - 2.869ms returns 0x00
T1BB0 000:108.684 JLINK_HasError()
T1BB0 000:108.714 JLINK_SetSpeed(5000)
T1BB0 000:109.601 - 0.889ms 
T1BB0 000:109.660 JLINK_GetId()
T1BB0 000:114.612   Found SW-DP with ID 0x2BA01477
T1BB0 000:126.834   Old FW that does not support reading DPIDR via DAP jobs
T1BB0 000:141.947   DPv0 detected
T1BB0 000:143.866   CoreSight SoC-400 or earlier
T1BB0 000:145.758   Scanning AP map to find all available APs
T1BB0 000:158.449   AP[1]: Stopped AP scan as end of AP map has been reached
T1BB0 000:161.354   AP[0]: AHB-AP (IDR: 0x24770011, ADDR: 0x00000000)
T1BB0 000:165.745   Iterating through AP map to find AHB-AP to use
T1BB0 000:183.816   AP[0]: Core found
T1BB0 000:186.881   AP[0]: AHB-AP ROM base: 0xE00FF000
T1BB0 000:200.384   CPUID register: 0x410FC241. Implementer code: 0x41 (ARM)
T1BB0 000:203.453   Found Cortex-M4 r0p1, Little endian.
T1BB0 000:204.951   -- Max. mem block: 0x00002220
T1BB0 000:206.355   CPU_ReadMem(4 bytes @ 0xE000EDF0)
T1BB0 000:207.403   CPU_WriteMem(4 bytes @ 0xE000EDF0)
T1BB0 000:208.385   CPU_ReadMem(4 bytes @ 0xE0002000)
T1BB0 000:212.790   FPUnit: 6 code (BP) slots and 2 literal slots
T1BB0 000:212.900   CPU_ReadMem(4 bytes @ 0xE000EDFC)
T1BB0 000:213.922   CPU_ReadMem(4 bytes @ 0xE0001000)
T1BB0 000:214.919   CPU_WriteMem(4 bytes @ 0xE0001000)
T1BB0 000:215.925   CPU_ReadMem(4 bytes @ 0xE000ED88)
T1BB0 000:216.900   CPU_WriteMem(4 bytes @ 0xE000ED88)
T1BB0 000:217.937   CPU_ReadMem(4 bytes @ 0xE000ED88)
T1BB0 000:218.907   CPU_WriteMem(4 bytes @ 0xE000ED88)
T1BB0 000:223.287   CoreSight components:
T1BB0 000:226.663   ROMTbl[0] @ E00FF000
T1BB0 000:226.811   CPU_ReadMem(64 bytes @ 0xE00FF000)
T1BB0 000:228.547   CPU_ReadMem(32 bytes @ 0xE000EFE0)
T1BB0 000:232.857   [0][0]: E000E000 CID B105E00D PID 000BB00C SCS-M7
T1BB0 000:232.905   CPU_ReadMem(32 bytes @ 0xE0001FE0)
T1BB0 000:238.370   [0][1]: E0001000 CID B105E00D PID 003BB002 DWT
T1BB0 000:238.471   CPU_ReadMem(32 bytes @ 0xE0002FE0)
T1BB0 000:242.880   [0][2]: E0002000 CID B105E00D PID 002BB003 FPB
T1BB0 000:242.937   CPU_ReadMem(32 bytes @ 0xE0000FE0)
T1BB0 000:248.261   [0][3]: E0000000 CID B105E00D PID 003BB001 ITM
T1BB0 000:248.323   CPU_ReadMem(32 bytes @ 0xE0040FE0)
T1BB0 000:253.016   [0][4]: E0040000 CID B105900D PID 000BB9A1 TPIU
T1BB0 000:254.606 - 144.945ms returns 0x2BA01477
T1BB0 000:254.676 JLINK_GetDLLVersion()
T1BB0 000:254.706 - 0.030ms returns 84401
T1BB0 000:254.741 JLINK_CORE_GetFound()
T1BB0 000:254.772 - 0.029ms returns 0xE0000FF
T1BB0 000:254.808 JLINK_GetDebugInfo(0x100 = JLINKARM_ROM_TABLE_ADDR_INDEX)
T1BB0 000:254.838   Value=0xE00FF000
T1BB0 000:254.883 - 0.076ms returns 0
T1BB0 000:261.981 JLINK_GetDebugInfo(0x100 = JLINKARM_ROM_TABLE_ADDR_INDEX)
T1BB0 000:262.044   Value=0xE00FF000
T1BB0 000:262.089 - 0.109ms returns 0
T1BB0 000:262.121 JLINK_GetDebugInfo(0x101 = JLINKARM_DEBUG_INFO_ETM_ADDR_INDEX)
T1BB0 000:262.151   Value=0x00000000
T1BB0 000:262.194 - 0.073ms returns 0
T1BB0 000:262.220 JLINK_ReadMemEx(0xE0041FF0, 0x10 Bytes, Flags = 0x02000004)
T1BB0 000:262.265   CPU_ReadMem(16 bytes @ 0xE0041FF0)
T1BB0 000:263.421   Data:  00 00 00 00 00 00 00 00 00 00 00 00 00 00 00 00
T1BB0 000:263.482 - 1.262ms returns 16 (0x10)
T1BB0 000:263.517 JLINK_GetDebugInfo(0x102 = JLINKARM_DEBUG_INFO_MTB_ADDR_INDEX)
T1BB0 000:263.547   Value=0x00000000
T1BB0 000:263.590 - 0.073ms returns 0
T1BB0 000:263.621 JLINK_GetDebugInfo(0x103 = JLINKARM_DEBUG_INFO_TPIU_ADDR_INDEX)
T1BB0 000:263.673   Value=0xE0040000
T1BB0 000:263.716 - 0.095ms returns 0
T1BB0 000:263.747 JLINK_GetDebugInfo(0x104 = JLINKARM_DEBUG_INFO_ITM_ADDR_INDEX)
T1BB0 000:263.777   Value=0xE0000000
T1BB0 000:263.821 - 0.074ms returns 0
T1BB0 000:263.852 JLINK_GetDebugInfo(0x105 = JLINKARM_DEBUG_INFO_DWT_ADDR_INDEX)
T1BB0 000:263.881   Value=0xE0001000
T1BB0 000:263.924 - 0.072ms returns 0
T1BB0 000:263.955 JLINK_GetDebugInfo(0x106 = JLINKARM_DEBUG_INFO_FPB_ADDR_INDEX)
T1BB0 000:263.984   Value=0xE0002000
T1BB0 000:264.027 - 0.072ms returns 0
T1BB0 000:264.057 JLINK_GetDebugInfo(0x107 = JLINKARM_DEBUG_INFO_NVIC_ADDR_INDEX)
T1BB0 000:264.086   Value=0xE000E000
T1BB0 000:264.129 - 0.072ms returns 0
T1BB0 000:264.160 JLINK_GetDebugInfo(0x10C = JLINKARM_DEBUG_INFO_DBG_ADDR_INDEX)
T1BB0 000:264.189   Value=0xE000EDF0
T1BB0 000:264.233 - 0.072ms returns 0
T1BB0 000:264.266 JLINK_GetDebugInfo(0x01 = Unknown)
T1BB0 000:264.295   Value=0x00000001
T1BB0 000:264.338 - 0.075ms returns 0
T1BB0 000:264.369 JLINK_ReadMemU32(0xE000ED00, 0x1 Items)
T1BB0 000:264.404   CPU_ReadMem(4 bytes @ 0xE000ED00)
T1BB0 000:265.425   Data:  41 C2 0F 41
T1BB0 000:265.484   Debug reg: CPUID
T1BB0 000:265.529 - 1.159ms returns 1 (0x1)
T1BB0 000:265.563 JLINK_GetDebugInfo(0x10F = JLINKARM_DEBUG_INFO_HAS_CORTEX_M_SECURITY_EXT_INDEX)
T1BB0 000:265.593   Value=0x00000000
T1BB0 000:265.637 - 0.074ms returns 0
T1BB0 000:265.675 JLINK_HasError()
T1BB0 000:265.707 JLINK_SetResetType(JLINKARM_CM3_RESET_TYPE_NORMAL)
T1BB0 000:265.737 - 0.029ms returns JLINKARM_CM3_RESET_TYPE_NORMAL
T1BB0 000:265.768 JLINK_Reset()
T1BB0 000:265.803   JLINK_GetResetTypeDesc
T1BB0 000:265.825   - 0.022ms 
T1BB0 000:269.428   Reset type: NORMAL (https://wiki.segger.com/J-Link_Reset_Strategies)
T1BB0 000:269.518   CPU is running
T1BB0 000:269.552   CPU_WriteMem(4 bytes @ 0xE000EDF0)
T1BB0 000:270.536   CPU is running
T1BB0 000:270.568   CPU_WriteMem(4 bytes @ 0xE000EDFC)
T1BB0 000:274.727   Reset: Halt core after reset via DEMCR.VC_CORERESET.
T1BB0 000:279.202   Reset: Reset device via AIRCR.SYSRESETREQ.
T1BB0 000:279.293   CPU is running
T1BB0 000:279.344   CPU_WriteMem(4 bytes @ 0xE000ED0C)
T1BB0 000:335.574   CPU_ReadMem(4 bytes @ 0xE000EDF0)
T1BB0 000:336.683   CPU_ReadMem(4 bytes @ 0xE000EDF0)
T1BB0 000:343.060   CPU_WriteMem(4 bytes @ 0xE000EDFC)
T1BB0 000:349.850   CPU_ReadMem(4 bytes @ 0xE000EDF0)
T1BB0 000:356.152   CPU_WriteMem(4 bytes @ 0xE0002000)
T1BB0 000:357.257   CPU_ReadMem(4 bytes @ 0xE000EDFC)
T1BB0 000:358.390   CPU_ReadMem(4 bytes @ 0xE0001000)
T1BB0 000:359.434 - 93.665ms 
T1BB0 000:359.500 JLINK_Halt()
T1BB0 000:359.530 - 0.030ms returns 0x00
T1BB0 000:359.565 JLINK_ReadMemU32(0xE000EDF0, 0x1 Items)
T1BB0 000:359.631   CPU_ReadMem(4 bytes @ 0xE000EDF0)
T1BB0 000:360.715   Data:  03 00 03 00
T1BB0 000:360.759   Debug reg: DHCSR
T1BB0 000:360.799 - 1.234ms returns 1 (0x1)
T1BB0 000:360.842 JLINK_WriteU32(0xE000EDF0, 0xA05F0003)
T1BB0 000:360.869   Debug reg: DHCSR
T1BB0 000:361.185   CPU_WriteMem(4 bytes @ 0xE000EDF0)
T1BB0 000:362.240 - 1.398ms returns 0 (0x00000000)
T1BB0 000:362.277 JLINK_WriteU32(0xE000EDFC, 0x01000000)
T1BB0 000:362.304   Debug reg: DEMCR
T1BB0 000:362.348   CPU_WriteMem(4 bytes @ 0xE000EDFC)
T1BB0 000:363.318 - 1.040ms returns 0 (0x00000000)
T1BB0 000:376.893 JLINK_GetHWStatus(...)
T1BB0 000:377.651 - 0.757ms returns 0
T1BB0 000:384.261 JLINK_GetNumBPUnits(Type = 0xFFFFFF00)
T1BB0 000:384.330 - 0.069ms returns 0x06
T1BB0 000:384.349 JLINK_GetNumBPUnits(Type = 0xF0)
T1BB0 000:384.368 - 0.019ms returns 0x2000
T1BB0 000:384.386 JLINK_GetNumWPUnits()
T1BB0 000:384.404 - 0.017ms returns 4
T1BB0 000:389.957 JLINK_GetSpeed()
T1BB0 000:390.009 - 0.051ms returns 2000
T1BB0 000:393.456 JLINK_ReadMemU32(0xE000E004, 0x1 Items)
T1BB0 000:393.504   CPU_ReadMem(4 bytes @ 0xE000E004)
T1BB0 000:394.535   Data:  04 00 00 00
T1BB0 000:394.579 - 1.122ms returns 1 (0x1)
T1BB0 000:394.610 JLINK_ReadMemU32(0xE000E004, 0x1 Items)
T1BB0 000:394.639   CPU_ReadMem(4 bytes @ 0xE000E004)
T1BB0 000:395.694   Data:  04 00 00 00
T1BB0 000:395.750 - 1.140ms returns 1 (0x1)
T1BB0 000:395.782 JLINK_WriteMemEx(0xE0001000, 0x0000001C Bytes, Flags = 0x02000004)
T1BB0 000:395.809   Data:  01 00 00 00 00 00 00 00 00 00 00 00 00 00 00 00 ...
T1BB0 000:395.857   CPU_WriteMem(28 bytes @ 0xE0001000)
T1BB0 000:397.031 - 1.250ms returns 0x1C
T1BB0 000:397.068 JLINK_Halt()
T1BB0 000:397.086 - 0.017ms returns 0x00
T1BB0 000:397.104 JLINK_IsHalted()
T1BB0 000:397.123 - 0.018ms returns TRUE
T1BB0 000:401.544 JLINK_WriteMem(0x1FFF8000, 0x670 Bytes, ...)
T1BB0 000:401.579   Data:  00 BE 0A E0 0D 78 2D 06 68 40 08 24 40 00 00 D3 ...
T1BB0 000:401.831   CPU_WriteMem(1648 bytes @ 0x1FFF8000)
T1BB0 000:418.444 - 16.898ms returns 0x670
T1BB0 000:418.583 JLINK_HasError()
T1BB0 000:418.620 JLINK_WriteReg(R0, 0x00000000)
T1BB0 000:418.656 - 0.036ms returns 0
T1BB0 000:418.697 JLINK_WriteReg(R1, 0x00B71B00)
T1BB0 000:418.727 - 0.030ms returns 0
T1BB0 000:418.760 JLINK_WriteReg(R2, 0x00000001)
T1BB0 000:418.790 - 0.030ms returns 0
T1BB0 000:418.821 JLINK_WriteReg(R3, 0x00000000)
T1BB0 000:418.851 - 0.030ms returns 0
T1BB0 000:418.882 JLINK_WriteReg(R4, 0x00000000)
T1BB0 000:418.913 - 0.030ms returns 0
T1BB0 000:418.944 JLINK_WriteReg(R5, 0x00000000)
T1BB0 000:418.973 - 0.029ms returns 0
T1BB0 000:419.004 JLINK_WriteReg(R6, 0x00000000)
T1BB0 000:419.034 - 0.030ms returns 0
T1BB0 000:419.066 JLINK_WriteReg(R7, 0x00000000)
T1BB0 000:419.095 - 0.029ms returns 0
T1BB0 000:419.126 JLINK_WriteReg(R8, 0x00000000)
T1BB0 000:419.156 - 0.029ms returns 0
T1BB0 000:419.187 JLINK_WriteReg(R9, 0x1FFF866C)
T1BB0 000:419.217 - 0.029ms returns 0
T1BB0 000:419.248 JLINK_WriteReg(R10, 0x00000000)
T1BB0 000:419.284 - 0.036ms returns 0
T1BB0 000:419.318 JLINK_WriteReg(R11, 0x00000000)
T1BB0 000:419.348 - 0.029ms returns 0
T1BB0 000:419.379 JLINK_WriteReg(R12, 0x00000000)
T1BB0 000:419.409 - 0.029ms returns 0
T1BB0 000:419.440 JLINK_WriteReg(R13 (SP), 0x1FFF9000)
T1BB0 000:419.462 - 0.021ms returns 0
T1BB0 000:419.483 JLINK_WriteReg(R14, 0x1FFF8001)
T1BB0 000:419.500 - 0.017ms returns 0
T1BB0 000:419.524 JLINK_WriteReg(R15 (PC), 0x1FFF8478)
T1BB0 000:419.541 - 0.023ms returns 0
T1BB0 000:419.559 JLINK_WriteReg(XPSR, 0x01000000)
T1BB0 000:419.575 - 0.016ms returns 0
T1BB0 000:419.593 JLINK_WriteReg(MSP, 0x1FFF9000)
T1BB0 000:419.610 - 0.017ms returns 0
T1BB0 000:419.628 JLINK_WriteReg(PSP, 0x1FFF9000)
T1BB0 000:419.645 - 0.016ms returns 0
T1BB0 000:419.662 JLINK_WriteReg(CFBP, 0x00000000)
T1BB0 000:419.679 - 0.016ms returns 0
T1BB0 000:419.697 JLINK_SetBPEx(Addr = 0x1FFF8000, Type = 0xFFFFFFF2)
T1BB0 000:419.716 - 0.019ms returns 0x00000001
T1BB0 000:419.734 JLINK_Go()
T1BB0 000:419.757   CPU_WriteMem(4 bytes @ 0xE0002000)
T1BB0 000:420.827   CPU_ReadMem(4 bytes @ 0xE0001000)
T1BB0 000:421.789   CPU_WriteMem(4 bytes @ 0xE0002008)
T1BB0 000:421.837   CPU_WriteMem(4 bytes @ 0xE000200C)
T1BB0 000:421.886   CPU_WriteMem(4 bytes @ 0xE0002010)
T1BB0 000:421.925   CPU_WriteMem(4 bytes @ 0xE0002014)
T1BB0 000:421.972   CPU_WriteMem(4 bytes @ 0xE0002018)
T1BB0 000:422.013   CPU_WriteMem(4 bytes @ 0xE000201C)
T1BB0 000:424.929   CPU_WriteMem(4 bytes @ 0xE0001004)
T1BB0 000:435.310   Memory map 'after startup completion point' is active
T1BB0 000:435.357 - 15.622ms 
T1BB0 000:435.381 JLINK_IsHalted()
T1BB0 000:440.949 - 5.567ms returns TRUE
T1BB0 000:441.003 JLINK_ReadReg(R15 (PC))
T1BB0 000:441.034 - 0.031ms returns 0x1FFF8000
T1BB0 000:441.063 JLINK_ClrBPEx(BPHandle = 0x00000001)
T1BB0 000:441.091 - 0.028ms returns 0x00
T1BB0 000:441.119 JLINK_ReadReg(R0)
T1BB0 000:441.147 - 0.027ms returns 0x00000000
T1BB0 000:441.644 JLINK_HasError()
T1BB0 000:441.685 JLINK_WriteReg(R0, 0x00000000)
T1BB0 000:441.714 - 0.028ms returns 0
T1BB0 000:441.742 JLINK_WriteReg(R1, 0x00002000)
T1BB0 000:441.769 - 0.027ms returns 0
T1BB0 000:441.798 JLINK_WriteReg(R2, 0x000000FF)
T1BB0 000:441.825 - 0.027ms returns 0
T1BB0 000:441.852 JLINK_WriteReg(R3, 0x00000000)
T1BB0 000:441.879 - 0.027ms returns 0
T1BB0 000:441.907 JLINK_WriteReg(R4, 0x00000000)
T1BB0 000:441.934 - 0.026ms returns 0
T1BB0 000:441.962 JLINK_WriteReg(R5, 0x00000000)
T1BB0 000:441.996 - 0.033ms returns 0
T1BB0 000:442.029 JLINK_WriteReg(R6, 0x00000000)
T1BB0 000:442.057 - 0.027ms returns 0
T1BB0 000:442.085 JLINK_WriteReg(R7, 0x00000000)
T1BB0 000:442.115 - 0.029ms returns 0
T1BB0 000:442.143 JLINK_WriteReg(R8, 0x00000000)
T1BB0 000:442.170 - 0.026ms returns 0
T1BB0 000:442.197 JLINK_WriteReg(R9, 0x1FFF866C)
T1BB0 000:442.224 - 0.026ms returns 0
T1BB0 000:442.252 JLINK_WriteReg(R10, 0x00000000)
T1BB0 000:442.279 - 0.026ms returns 0
T1BB0 000:442.307 JLINK_WriteReg(R11, 0x00000000)
T1BB0 000:442.333 - 0.026ms returns 0
T1BB0 000:442.361 JLINK_WriteReg(R12, 0x00000000)
T1BB0 000:442.388 - 0.026ms returns 0
T1BB0 000:442.416 JLINK_WriteReg(R13 (SP), 0x1FFF9000)
T1BB0 000:442.443 - 0.027ms returns 0
T1BB0 000:442.471 JLINK_WriteReg(R14, 0x1FFF8001)
T1BB0 000:442.500 - 0.028ms returns 0
T1BB0 000:442.517 JLINK_WriteReg(R15 (PC), 0x1FFF8020)
T1BB0 000:442.534 - 0.016ms returns 0
T1BB0 000:442.552 JLINK_WriteReg(XPSR, 0x01000000)
T1BB0 000:442.569 - 0.016ms returns 0
T1BB0 000:442.586 JLINK_WriteReg(MSP, 0x1FFF9000)
T1BB0 000:442.603 - 0.016ms returns 0
T1BB0 000:442.620 JLINK_WriteReg(PSP, 0x1FFF9000)
T1BB0 000:442.637 - 0.016ms returns 0
T1BB0 000:442.659 JLINK_WriteReg(CFBP, 0x00000000)
T1BB0 000:442.676 - 0.016ms returns 0
T1BB0 000:442.694 JLINK_SetBPEx(Addr = 0x1FFF8000, Type = 0xFFFFFFF2)
T1BB0 000:442.712 - 0.018ms returns 0x00000002
T1BB0 000:442.730 JLINK_Go()
T1BB0 000:442.753   CPU_WriteMem(4 bytes @ 0xE0002000)
T1BB0 000:443.660   CPU_ReadMem(4 bytes @ 0xE0001000)
T1BB0 000:449.910 - 7.179ms 
T1BB0 000:450.013 JLINK_IsHalted()
T1BB0 000:455.373 - 5.359ms returns TRUE
T1BB0 000:455.438 JLINK_ReadReg(R15 (PC))
T1BB0 000:455.473 - 0.035ms returns 0x1FFF8000
T1BB0 000:455.508 JLINK_ClrBPEx(BPHandle = 0x00000002)
T1BB0 000:455.548 - 0.040ms returns 0x00
T1BB0 000:455.579 JLINK_ReadReg(R0)
T1BB0 000:455.607 - 0.027ms returns 0x00000001
T1BB0 000:455.639 JLINK_HasError()
T1BB0 000:455.671 JLINK_WriteReg(R0, 0x00000000)
T1BB0 000:455.700 - 0.028ms returns 0
T1BB0 000:455.736 JLINK_WriteReg(R1, 0x00002000)
T1BB0 000:455.772 - 0.035ms returns 0
T1BB0 000:455.805 JLINK_WriteReg(R2, 0x000000FF)
T1BB0 000:455.837 - 0.032ms returns 0
T1BB0 000:455.870 JLINK_WriteReg(R3, 0x00000000)
T1BB0 000:455.898 - 0.027ms returns 0
T1BB0 000:455.929 JLINK_WriteReg(R4, 0x00000000)
T1BB0 000:455.956 - 0.027ms returns 0
T1BB0 000:455.987 JLINK_WriteReg(R5, 0x00000000)
T1BB0 000:456.014 - 0.027ms returns 0
T1BB0 000:456.045 JLINK_WriteReg(R6, 0x00000000)
T1BB0 000:456.072 - 0.027ms returns 0
T1BB0 000:456.103 JLINK_WriteReg(R7, 0x00000000)
T1BB0 000:456.130 - 0.027ms returns 0
T1BB0 000:456.161 JLINK_WriteReg(R8, 0x00000000)
T1BB0 000:456.190 - 0.028ms returns 0
T1BB0 000:456.222 JLINK_WriteReg(R9, 0x1FFF866C)
T1BB0 000:456.257 - 0.034ms returns 0
T1BB0 000:456.294 JLINK_WriteReg(R10, 0x00000000)
T1BB0 000:456.323 - 0.029ms returns 0
T1BB0 000:456.363 JLINK_WriteReg(R11, 0x00000000)
T1BB0 000:456.390 - 0.027ms returns 0
T1BB0 000:456.421 JLINK_WriteReg(R12, 0x00000000)
T1BB0 000:456.448 - 0.027ms returns 0
T1BB0 000:456.480 JLINK_WriteReg(R13 (SP), 0x1FFF9000)
T1BB0 000:456.508 - 0.028ms returns 0
T1BB0 000:456.539 JLINK_WriteReg(R14, 0x1FFF8001)
T1BB0 000:456.567 - 0.027ms returns 0
T1BB0 000:456.599 JLINK_WriteReg(R15 (PC), 0x1FFF813E)
T1BB0 000:456.639 - 0.040ms returns 0
T1BB0 000:456.680 JLINK_WriteReg(XPSR, 0x01000000)
T1BB0 000:456.708 - 0.027ms returns 0
T1BB0 000:456.739 JLINK_WriteReg(MSP, 0x1FFF9000)
T1BB0 000:456.766 - 0.027ms returns 0
T1BB0 000:456.798 JLINK_WriteReg(PSP, 0x1FFF9000)
T1BB0 000:456.827 - 0.029ms returns 0
T1BB0 000:456.858 JLINK_WriteReg(CFBP, 0x00000000)
T1BB0 000:456.881 - 0.022ms returns 0
T1BB0 000:456.903 JLINK_SetBPEx(Addr = 0x1FFF8000, Type = 0xFFFFFFF2)
T1BB0 000:456.922 - 0.018ms returns 0x00000003
T1BB0 000:456.941 JLINK_Go()
T1BB0 000:456.965   CPU_WriteMem(4 bytes @ 0xE0002000)
T1BB0 000:457.945   CPU_ReadMem(4 bytes @ 0xE0001000)
T1BB0 000:464.282 - 7.339ms 
T1BB0 000:464.348 JLINK_IsHalted()
T1BB0 000:465.301 - 0.952ms returns FALSE
T1BB0 000:465.341 JLINK_HasError()
T1BB0 000:479.872 JLINK_IsHalted()
T1BB0 000:485.390 - 5.517ms returns TRUE
T1BB0 000:485.446 JLINK_ReadReg(R15 (PC))
T1BB0 000:485.481 - 0.035ms returns 0x1FFF8000
T1BB0 000:485.514 JLINK_ClrBPEx(BPHandle = 0x00000003)
T1BB0 000:485.542 - 0.028ms returns 0x00
T1BB0 000:485.571 JLINK_ReadReg(R0)
T1BB0 000:485.621 - 0.050ms returns 0x00000000
T1BB0 000:488.340 JLINK_HasError()
T1BB0 000:488.379 JLINK_WriteReg(R0, 0x00002000)
T1BB0 000:488.412 - 0.032ms returns 0
T1BB0 000:488.433 JLINK_WriteReg(R1, 0x00002000)
T1BB0 000:488.455 - 0.021ms returns 0
T1BB0 000:488.473 JLINK_WriteReg(R2, 0x000000FF)
T1BB0 000:488.490 - 0.017ms returns 0
T1BB0 000:488.508 JLINK_WriteReg(R3, 0x00000000)
T1BB0 000:488.525 - 0.017ms returns 0
T1BB0 000:488.543 JLINK_WriteReg(R4, 0x00000000)
T1BB0 000:488.560 - 0.017ms returns 0
T1BB0 000:488.579 JLINK_WriteReg(R5, 0x00000000)
T1BB0 000:488.596 - 0.017ms returns 0
T1BB0 000:488.614 JLINK_WriteReg(R6, 0x00000000)
T1BB0 000:488.632 - 0.017ms returns 0
T1BB0 000:488.650 JLINK_WriteReg(R7, 0x00000000)
T1BB0 000:488.667 - 0.017ms returns 0
T1BB0 000:488.685 JLINK_WriteReg(R8, 0x00000000)
T1BB0 000:488.702 - 0.017ms returns 0
T1BB0 000:488.720 JLINK_WriteReg(R9, 0x1FFF866C)
T1BB0 000:488.737 - 0.017ms returns 0
T1BB0 000:488.755 JLINK_WriteReg(R10, 0x00000000)
T1BB0 000:488.772 - 0.017ms returns 0
T1BB0 000:488.789 JLINK_WriteReg(R11, 0x00000000)
T1BB0 000:488.806 - 0.017ms returns 0
T1BB0 000:488.823 JLINK_WriteReg(R12, 0x00000000)
T1BB0 000:488.899 - 0.075ms returns 0
T1BB0 000:488.924 JLINK_WriteReg(R13 (SP), 0x1FFF9000)
T1BB0 000:488.942 - 0.017ms returns 0
T1BB0 000:488.959 JLINK_WriteReg(R14, 0x1FFF8001)
T1BB0 000:488.976 - 0.016ms returns 0
T1BB0 000:488.994 JLINK_WriteReg(R15 (PC), 0x1FFF8020)
T1BB0 000:489.011 - 0.017ms returns 0
T1BB0 000:489.029 JLINK_WriteReg(XPSR, 0x01000000)
T1BB0 000:489.046 - 0.016ms returns 0
T1BB0 000:489.063 JLINK_WriteReg(MSP, 0x1FFF9000)
T1BB0 000:489.080 - 0.016ms returns 0
T1BB0 000:489.098 JLINK_WriteReg(PSP, 0x1FFF9000)
T1BB0 000:489.139 - 0.041ms returns 0
T1BB0 000:489.156 JLINK_WriteReg(CFBP, 0x00000000)
T1BB0 000:489.173 - 0.016ms returns 0
T1BB0 000:489.191 JLINK_SetBPEx(Addr = 0x1FFF8000, Type = 0xFFFFFFF2)
T1BB0 000:489.211 - 0.019ms returns 0x00000004
T1BB0 000:489.229 JLINK_Go()
T1BB0 000:489.254   CPU_WriteMem(4 bytes @ 0xE0002000)
T1BB0 000:490.233   CPU_ReadMem(4 bytes @ 0xE0001000)
T1BB0 000:496.535 - 7.305ms 
T1BB0 000:496.593 JLINK_IsHalted()
T1BB0 000:501.957 - 5.363ms returns TRUE
T1BB0 000:502.016 JLINK_ReadReg(R15 (PC))
T1BB0 000:502.047 - 0.031ms returns 0x1FFF8000
T1BB0 000:502.079 JLINK_ClrBPEx(BPHandle = 0x00000004)
T1BB0 000:502.107 - 0.028ms returns 0x00
T1BB0 000:502.138 JLINK_ReadReg(R0)
T1BB0 000:502.165 - 0.027ms returns 0x00000001
T1BB0 000:502.222 JLINK_HasError()
T1BB0 000:502.326 JLINK_WriteReg(R0, 0x00002000)
T1BB0 000:502.382 - 0.057ms returns 0
T1BB0 000:502.411 JLINK_WriteReg(R1, 0x00002000)
T1BB0 000:502.439 - 0.027ms returns 0
T1BB0 000:502.467 JLINK_WriteReg(R2, 0x000000FF)
T1BB0 000:502.494 - 0.027ms returns 0
T1BB0 000:502.535 JLINK_WriteReg(R3, 0x00000000)
T1BB0 000:502.565 - 0.030ms returns 0
T1BB0 000:502.596 JLINK_WriteReg(R4, 0x00000000)
T1BB0 000:502.626 - 0.029ms returns 0
T1BB0 000:502.657 JLINK_WriteReg(R5, 0x00000000)
T1BB0 000:502.687 - 0.030ms returns 0
T1BB0 000:502.718 JLINK_WriteReg(R6, 0x00000000)
T1BB0 000:502.751 - 0.033ms returns 0
T1BB0 000:502.782 JLINK_WriteReg(R7, 0x00000000)
T1BB0 000:502.812 - 0.029ms returns 0
T1BB0 000:502.842 JLINK_WriteReg(R8, 0x00000000)
T1BB0 000:502.872 - 0.029ms returns 0
T1BB0 000:502.902 JLINK_WriteReg(R9, 0x1FFF866C)
T1BB0 000:502.932 - 0.029ms returns 0
T1BB0 000:502.962 JLINK_WriteReg(R10, 0x00000000)
T1BB0 000:502.992 - 0.029ms returns 0
T1BB0 000:503.023 JLINK_WriteReg(R11, 0x00000000)
T1BB0 000:503.052 - 0.029ms returns 0
T1BB0 000:503.083 JLINK_WriteReg(R12, 0x00000000)
T1BB0 000:503.112 - 0.029ms returns 0
T1BB0 000:503.143 JLINK_WriteReg(R13 (SP), 0x1FFF9000)
T1BB0 000:503.173 - 0.030ms returns 0
T1BB0 000:503.203 JLINK_WriteReg(R14, 0x1FFF8001)
T1BB0 000:503.233 - 0.029ms returns 0
T1BB0 000:503.274 JLINK_WriteReg(R15 (PC), 0x1FFF813E)
T1BB0 000:503.304 - 0.029ms returns 0
T1BB0 000:503.335 JLINK_WriteReg(XPSR, 0x01000000)
T1BB0 000:503.365 - 0.030ms returns 0
T1BB0 000:503.396 JLINK_WriteReg(MSP, 0x1FFF9000)
T1BB0 000:503.426 - 0.029ms returns 0
T1BB0 000:503.456 JLINK_WriteReg(PSP, 0x1FFF9000)
T1BB0 000:503.486 - 0.030ms returns 0
T1BB0 000:503.516 JLINK_WriteReg(CFBP, 0x00000000)
T1BB0 000:503.546 - 0.029ms returns 0
T1BB0 000:503.578 JLINK_SetBPEx(Addr = 0x1FFF8000, Type = 0xFFFFFFF2)
T1BB0 000:503.610 - 0.032ms returns 0x00000005
T1BB0 000:503.642 JLINK_Go()
T1BB0 000:503.684   CPU_WriteMem(4 bytes @ 0xE0002000)
T1BB0 000:504.673   CPU_ReadMem(4 bytes @ 0xE0001000)
T1BB0 000:511.069 - 7.426ms 
T1BB0 000:511.107 JLINK_IsHalted()
T1BB0 000:512.089 - 0.981ms returns FALSE
T1BB0 000:512.119 JLINK_HasError()
T1BB0 000:515.394 JLINK_IsHalted()
T1BB0 000:516.428 - 1.034ms returns FALSE
T1BB0 000:516.474 JLINK_HasError()
T1BB0 000:518.614 JLINK_IsHalted()
T1BB0 000:519.513 - 0.897ms returns FALSE
T1BB0 000:519.541 JLINK_HasError()
T1BB0 000:520.934 JLINK_IsHalted()
T1BB0 000:521.903 - 0.968ms returns FALSE
T1BB0 000:521.937 JLINK_HasError()
T1BB0 000:523.454 JLINK_IsHalted()
T1BB0 000:524.419 - 0.964ms returns FALSE
T1BB0 000:524.461 JLINK_HasError()
T1BB0 000:526.439 JLINK_IsHalted()
T1BB0 000:531.938 - 5.498ms returns TRUE
T1BB0 000:532.072 JLINK_ReadReg(R15 (PC))
T1BB0 000:532.103 - 0.031ms returns 0x1FFF8000
T1BB0 000:532.135 JLINK_ClrBPEx(BPHandle = 0x00000005)
T1BB0 000:532.163 - 0.028ms returns 0x00
T1BB0 000:532.194 JLINK_ReadReg(R0)
T1BB0 000:532.222 - 0.027ms returns 0x00000000
T1BB0 000:534.710 JLINK_HasError()
T1BB0 000:534.881 JLINK_WriteReg(R0, 0x00004000)
T1BB0 000:534.932 - 0.053ms returns 0
T1BB0 000:534.963 JLINK_WriteReg(R1, 0x00002000)
T1BB0 000:534.994 - 0.031ms returns 0
T1BB0 000:535.031 JLINK_WriteReg(R2, 0x000000FF)
T1BB0 000:535.054 - 0.023ms returns 0
T1BB0 000:535.072 JLINK_WriteReg(R3, 0x00000000)
T1BB0 000:535.090 - 0.018ms returns 0
T1BB0 000:535.108 JLINK_WriteReg(R4, 0x00000000)
T1BB0 000:535.127 - 0.018ms returns 0
T1BB0 000:535.151 JLINK_WriteReg(R5, 0x00000000)
T1BB0 000:535.168 - 0.017ms returns 0
T1BB0 000:535.189 JLINK_WriteReg(R6, 0x00000000)
T1BB0 000:535.207 - 0.018ms returns 0
T1BB0 000:535.256 JLINK_WriteReg(R7, 0x00000000)
T1BB0 000:535.273 - 0.017ms returns 0
T1BB0 000:535.291 JLINK_WriteReg(R8, 0x00000000)
T1BB0 000:535.308 - 0.017ms returns 0
T1BB0 000:535.325 JLINK_WriteReg(R9, 0x1FFF866C)
T1BB0 000:535.342 - 0.017ms returns 0
T1BB0 000:535.361 JLINK_WriteReg(R10, 0x00000000)
T1BB0 000:535.377 - 0.016ms returns 0
T1BB0 000:535.395 JLINK_WriteReg(R11, 0x00000000)
T1BB0 000:535.412 - 0.017ms returns 0
T1BB0 000:535.429 JLINK_WriteReg(R12, 0x00000000)
T1BB0 000:535.446 - 0.017ms returns 0
T1BB0 000:535.464 JLINK_WriteReg(R13 (SP), 0x1FFF9000)
T1BB0 000:535.481 - 0.017ms returns 0
T1BB0 000:535.499 JLINK_WriteReg(R14, 0x1FFF8001)
T1BB0 000:535.516 - 0.017ms returns 0
T1BB0 000:535.533 JLINK_WriteReg(R15 (PC), 0x1FFF8020)
T1BB0 000:535.550 - 0.017ms returns 0
T1BB0 000:535.567 JLINK_WriteReg(XPSR, 0x01000000)
T1BB0 000:535.585 - 0.017ms returns 0
T1BB0 000:535.602 JLINK_WriteReg(MSP, 0x1FFF9000)
T1BB0 000:535.620 - 0.017ms returns 0
T1BB0 000:535.637 JLINK_WriteReg(PSP, 0x1FFF9000)
T1BB0 000:535.654 - 0.017ms returns 0
T1BB0 000:535.672 JLINK_WriteReg(CFBP, 0x00000000)
T1BB0 000:535.689 - 0.016ms returns 0
T1BB0 000:535.707 JLINK_SetBPEx(Addr = 0x1FFF8000, Type = 0xFFFFFFF2)
T1BB0 000:535.752 - 0.044ms returns 0x00000006
T1BB0 000:535.785 JLINK_Go()
T1BB0 000:535.813   CPU_WriteMem(4 bytes @ 0xE0002000)
T1BB0 000:536.811   CPU_ReadMem(4 bytes @ 0xE0001000)
T1BB0 000:543.023 - 7.237ms 
T1BB0 000:543.056 JLINK_IsHalted()
T1BB0 000:548.372 - 5.314ms returns TRUE
T1BB0 000:548.406 JLINK_ReadReg(R15 (PC))
T1BB0 000:548.431 - 0.025ms returns 0x1FFF8000
T1BB0 000:548.461 JLINK_ClrBPEx(BPHandle = 0x00000006)
T1BB0 000:548.479 - 0.018ms returns 0x00
T1BB0 000:548.500 JLINK_ReadReg(R0)
T1BB0 000:548.517 - 0.017ms returns 0x00000001
T1BB0 000:548.536 JLINK_HasError()
T1BB0 000:548.555 JLINK_WriteReg(R0, 0x00004000)
T1BB0 000:548.572 - 0.017ms returns 0
T1BB0 000:548.590 JLINK_WriteReg(R1, 0x00002000)
T1BB0 000:548.607 - 0.016ms returns 0
T1BB0 000:548.624 JLINK_WriteReg(R2, 0x000000FF)
T1BB0 000:548.641 - 0.017ms returns 0
T1BB0 000:548.659 JLINK_WriteReg(R3, 0x00000000)
T1BB0 000:548.676 - 0.016ms returns 0
T1BB0 000:548.693 JLINK_WriteReg(R4, 0x00000000)
T1BB0 000:548.710 - 0.016ms returns 0
T1BB0 000:548.728 JLINK_WriteReg(R5, 0x00000000)
T1BB0 000:548.745 - 0.016ms returns 0
T1BB0 000:548.762 JLINK_WriteReg(R6, 0x00000000)
T1BB0 000:548.778 - 0.016ms returns 0
T1BB0 000:548.796 JLINK_WriteReg(R7, 0x00000000)
T1BB0 000:548.813 - 0.016ms returns 0
T1BB0 000:548.830 JLINK_WriteReg(R8, 0x00000000)
T1BB0 000:548.847 - 0.017ms returns 0
T1BB0 000:548.865 JLINK_WriteReg(R9, 0x1FFF866C)
T1BB0 000:548.881 - 0.016ms returns 0
T1BB0 000:548.899 JLINK_WriteReg(R10, 0x00000000)
T1BB0 000:548.916 - 0.017ms returns 0
T1BB0 000:548.933 JLINK_WriteReg(R11, 0x00000000)
T1BB0 000:548.950 - 0.016ms returns 0
T1BB0 000:548.967 JLINK_WriteReg(R12, 0x00000000)
T1BB0 000:548.984 - 0.017ms returns 0
T1BB0 000:549.002 JLINK_WriteReg(R13 (SP), 0x1FFF9000)
T1BB0 000:549.019 - 0.017ms returns 0
T1BB0 000:549.036 JLINK_WriteReg(R14, 0x1FFF8001)
T1BB0 000:549.103 - 0.066ms returns 0
T1BB0 000:549.123 JLINK_WriteReg(R15 (PC), 0x1FFF813E)
T1BB0 000:549.139 - 0.016ms returns 0
T1BB0 000:549.157 JLINK_WriteReg(XPSR, 0x01000000)
T1BB0 000:549.173 - 0.016ms returns 0
T1BB0 000:549.190 JLINK_WriteReg(MSP, 0x1FFF9000)
T1BB0 000:549.207 - 0.016ms returns 0
T1BB0 000:549.224 JLINK_WriteReg(PSP, 0x1FFF9000)
T1BB0 000:549.241 - 0.016ms returns 0
T1BB0 000:549.258 JLINK_WriteReg(CFBP, 0x00000000)
T1BB0 000:549.275 - 0.016ms returns 0
T1BB0 000:549.293 JLINK_SetBPEx(Addr = 0x1FFF8000, Type = 0xFFFFFFF2)
T1BB0 000:549.312 - 0.018ms returns 0x00000007
T1BB0 000:549.330 JLINK_Go()
T1BB0 000:549.353   CPU_WriteMem(4 bytes @ 0xE0002000)
T1BB0 000:550.276   CPU_ReadMem(4 bytes @ 0xE0001000)
T1BB0 000:556.556 - 7.223ms 
T1BB0 000:556.634 JLINK_IsHalted()
T1BB0 000:557.546 - 0.911ms returns FALSE
T1BB0 000:557.595 JLINK_HasError()
T1BB0 000:560.944 JLINK_IsHalted()
T1BB0 000:561.937 - 0.993ms returns FALSE
T1BB0 000:561.970 JLINK_HasError()
T1BB0 000:563.493 JLINK_IsHalted()
T1BB0 000:564.553 - 1.059ms returns FALSE
T1BB0 000:564.607 JLINK_HasError()
T1BB0 000:566.485 JLINK_IsHalted()
T1BB0 000:567.564 - 1.079ms returns FALSE
T1BB0 000:567.597 JLINK_HasError()
T1BB0 000:569.676 JLINK_IsHalted()
T1BB0 000:575.260 - 5.583ms returns TRUE
T1BB0 000:575.308 JLINK_ReadReg(R15 (PC))
T1BB0 000:575.342 - 0.034ms returns 0x1FFF8000
T1BB0 000:575.371 JLINK_ClrBPEx(BPHandle = 0x00000007)
T1BB0 000:575.401 - 0.030ms returns 0x00
T1BB0 000:575.430 JLINK_ReadReg(R0)
T1BB0 000:575.457 - 0.027ms returns 0x00000000
T1BB0 000:576.464 JLINK_HasError()
T1BB0 000:576.519 JLINK_WriteReg(R0, 0x00006000)
T1BB0 000:576.550 - 0.031ms returns 0
T1BB0 000:576.579 JLINK_WriteReg(R1, 0x00002000)
T1BB0 000:576.606 - 0.027ms returns 0
T1BB0 000:576.638 JLINK_WriteReg(R2, 0x000000FF)
T1BB0 000:576.667 - 0.029ms returns 0
T1BB0 000:576.696 JLINK_WriteReg(R3, 0x00000000)
T1BB0 000:576.728 - 0.031ms returns 0
T1BB0 000:576.757 JLINK_WriteReg(R4, 0x00000000)
T1BB0 000:576.785 - 0.027ms returns 0
T1BB0 000:576.813 JLINK_WriteReg(R5, 0x00000000)
T1BB0 000:576.842 - 0.028ms returns 0
T1BB0 000:576.861 JLINK_WriteReg(R6, 0x00000000)
T1BB0 000:576.879 - 0.018ms returns 0
T1BB0 000:576.897 JLINK_WriteReg(R7, 0x00000000)
T1BB0 000:576.915 - 0.017ms returns 0
T1BB0 000:576.933 JLINK_WriteReg(R8, 0x00000000)
T1BB0 000:576.950 - 0.017ms returns 0
T1BB0 000:576.967 JLINK_WriteReg(R9, 0x1FFF866C)
T1BB0 000:576.984 - 0.017ms returns 0
T1BB0 000:577.002 JLINK_WriteReg(R10, 0x00000000)
T1BB0 000:577.019 - 0.016ms returns 0
T1BB0 000:577.037 JLINK_WriteReg(R11, 0x00000000)
T1BB0 000:577.054 - 0.017ms returns 0
T1BB0 000:577.072 JLINK_WriteReg(R12, 0x00000000)
T1BB0 000:577.089 - 0.016ms returns 0
T1BB0 000:577.108 JLINK_WriteReg(R13 (SP), 0x1FFF9000)
T1BB0 000:577.125 - 0.017ms returns 0
T1BB0 000:577.143 JLINK_WriteReg(R14, 0x1FFF8001)
T1BB0 000:577.160 - 0.017ms returns 0
T1BB0 000:577.184 JLINK_WriteReg(R15 (PC), 0x1FFF8020)
T1BB0 000:577.204 - 0.019ms returns 0
T1BB0 000:577.224 JLINK_WriteReg(XPSR, 0x01000000)
T1BB0 000:577.243 - 0.020ms returns 0
T1BB0 000:577.262 JLINK_WriteReg(MSP, 0x1FFF9000)
T1BB0 000:577.279 - 0.017ms returns 0
T1BB0 000:577.299 JLINK_WriteReg(PSP, 0x1FFF9000)
T1BB0 000:577.318 - 0.018ms returns 0
T1BB0 000:577.335 JLINK_WriteReg(CFBP, 0x00000000)
T1BB0 000:577.352 - 0.017ms returns 0
T1BB0 000:577.371 JLINK_SetBPEx(Addr = 0x1FFF8000, Type = 0xFFFFFFF2)
T1BB0 000:577.396 - 0.025ms returns 0x00000008
T1BB0 000:577.418 JLINK_Go()
T1BB0 000:577.476   CPU_WriteMem(4 bytes @ 0xE0002000)
T1BB0 000:578.464   CPU_ReadMem(4 bytes @ 0xE0001000)
T1BB0 000:585.030 - 7.611ms 
T1BB0 000:585.088 JLINK_IsHalted()
T1BB0 000:590.357 - 5.267ms returns TRUE
T1BB0 000:590.407 JLINK_ReadReg(R15 (PC))
T1BB0 000:590.429 - 0.021ms returns 0x1FFF8000
T1BB0 000:590.449 JLINK_ClrBPEx(BPHandle = 0x00000008)
T1BB0 000:590.469 - 0.019ms returns 0x00
T1BB0 000:590.489 JLINK_ReadReg(R0)
T1BB0 000:590.507 - 0.018ms returns 0x00000001
T1BB0 000:590.534 JLINK_HasError()
T1BB0 000:590.557 JLINK_WriteReg(R0, 0x00006000)
T1BB0 000:590.574 - 0.017ms returns 0
T1BB0 000:590.594 JLINK_WriteReg(R1, 0x00002000)
T1BB0 000:590.610 - 0.017ms returns 0
T1BB0 000:590.630 JLINK_WriteReg(R2, 0x000000FF)
T1BB0 000:590.647 - 0.017ms returns 0
T1BB0 000:590.666 JLINK_WriteReg(R3, 0x00000000)
T1BB0 000:590.683 - 0.017ms returns 0
T1BB0 000:590.702 JLINK_WriteReg(R4, 0x00000000)
T1BB0 000:590.719 - 0.017ms returns 0
T1BB0 000:590.738 JLINK_WriteReg(R5, 0x00000000)
T1BB0 000:590.756 - 0.017ms returns 0
T1BB0 000:590.775 JLINK_WriteReg(R6, 0x00000000)
T1BB0 000:590.792 - 0.017ms returns 0
T1BB0 000:590.811 JLINK_WriteReg(R7, 0x00000000)
T1BB0 000:590.828 - 0.017ms returns 0
T1BB0 000:590.847 JLINK_WriteReg(R8, 0x00000000)
T1BB0 000:590.864 - 0.017ms returns 0
T1BB0 000:590.883 JLINK_WriteReg(R9, 0x1FFF866C)
T1BB0 000:590.900 - 0.016ms returns 0
T1BB0 000:590.919 JLINK_WriteReg(R10, 0x00000000)
T1BB0 000:590.937 - 0.017ms returns 0
T1BB0 000:590.956 JLINK_WriteReg(R11, 0x00000000)
T1BB0 000:590.973 - 0.017ms returns 0
T1BB0 000:590.993 JLINK_WriteReg(R12, 0x00000000)
T1BB0 000:591.010 - 0.017ms returns 0
T1BB0 000:591.029 JLINK_WriteReg(R13 (SP), 0x1FFF9000)
T1BB0 000:591.046 - 0.017ms returns 0
T1BB0 000:591.066 JLINK_WriteReg(R14, 0x1FFF8001)
T1BB0 000:591.083 - 0.017ms returns 0
T1BB0 000:591.102 JLINK_WriteReg(R15 (PC), 0x1FFF813E)
T1BB0 000:591.119 - 0.017ms returns 0
T1BB0 000:591.138 JLINK_WriteReg(XPSR, 0x01000000)
T1BB0 000:591.155 - 0.017ms returns 0
T1BB0 000:591.174 JLINK_WriteReg(MSP, 0x1FFF9000)
T1BB0 000:591.191 - 0.016ms returns 0
T1BB0 000:591.211 JLINK_WriteReg(PSP, 0x1FFF9000)
T1BB0 000:591.227 - 0.017ms returns 0
T1BB0 000:591.247 JLINK_WriteReg(CFBP, 0x00000000)
T1BB0 000:591.264 - 0.017ms returns 0
T1BB0 000:591.284 JLINK_SetBPEx(Addr = 0x1FFF8000, Type = 0xFFFFFFF2)
T1BB0 000:591.302 - 0.017ms returns 0x00000009
T1BB0 000:591.321 JLINK_Go()
T1BB0 000:591.344   CPU_WriteMem(4 bytes @ 0xE0002000)
T1BB0 000:592.284   CPU_ReadMem(4 bytes @ 0xE0001000)
T1BB0 000:598.931 - 7.608ms 
T1BB0 000:598.982 JLINK_IsHalted()
T1BB0 000:599.914 - 0.932ms returns FALSE
T1BB0 000:599.950 JLINK_HasError()
T1BB0 000:602.439 JLINK_IsHalted()
T1BB0 000:603.442 - 1.003ms returns FALSE
T1BB0 000:603.487 JLINK_HasError()
T1BB0 000:605.425 JLINK_IsHalted()
T1BB0 000:606.495 - 1.069ms returns FALSE
T1BB0 000:606.529 JLINK_HasError()
T1BB0 000:607.892 JLINK_IsHalted()
T1BB0 000:608.908 - 1.014ms returns FALSE
T1BB0 000:608.953 JLINK_HasError()
T1BB0 000:610.895 JLINK_IsHalted()
T1BB0 000:611.907 - 1.012ms returns FALSE
T1BB0 000:611.941 JLINK_HasError()
T1BB0 000:613.402 JLINK_IsHalted()
T1BB0 000:618.779 - 5.376ms returns TRUE
T1BB0 000:618.826 JLINK_ReadReg(R15 (PC))
T1BB0 000:618.859 - 0.033ms returns 0x1FFF8000
T1BB0 000:618.888 JLINK_ClrBPEx(BPHandle = 0x00000009)
T1BB0 000:618.917 - 0.029ms returns 0x00
T1BB0 000:618.946 JLINK_ReadReg(R0)
T1BB0 000:618.973 - 0.027ms returns 0x00000000
T1BB0 000:619.832 JLINK_HasError()
T1BB0 000:619.876 JLINK_WriteReg(R0, 0x00000001)
T1BB0 000:619.907 - 0.031ms returns 0
T1BB0 000:619.935 JLINK_WriteReg(R1, 0x00002000)
T1BB0 000:619.963 - 0.027ms returns 0
T1BB0 000:619.992 JLINK_WriteReg(R2, 0x000000FF)
T1BB0 000:620.020 - 0.027ms returns 0
T1BB0 000:620.048 JLINK_WriteReg(R3, 0x00000000)
T1BB0 000:620.076 - 0.027ms returns 0
T1BB0 000:620.104 JLINK_WriteReg(R4, 0x00000000)
T1BB0 000:620.126 - 0.022ms returns 0
T1BB0 000:620.144 JLINK_WriteReg(R5, 0x00000000)
T1BB0 000:620.161 - 0.017ms returns 0
T1BB0 000:620.179 JLINK_WriteReg(R6, 0x00000000)
T1BB0 000:620.196 - 0.017ms returns 0
T1BB0 000:620.214 JLINK_WriteReg(R7, 0x00000000)
T1BB0 000:620.231 - 0.017ms returns 0
T1BB0 000:620.249 JLINK_WriteReg(R8, 0x00000000)
T1BB0 000:620.266 - 0.017ms returns 0
T1BB0 000:620.283 JLINK_WriteReg(R9, 0x1FFF866C)
T1BB0 000:620.300 - 0.016ms returns 0
T1BB0 000:620.318 JLINK_WriteReg(R10, 0x00000000)
T1BB0 000:620.335 - 0.017ms returns 0
T1BB0 000:620.353 JLINK_WriteReg(R11, 0x00000000)
T1BB0 000:620.384 - 0.030ms returns 0
T1BB0 000:620.401 JLINK_WriteReg(R12, 0x00000000)
T1BB0 000:620.418 - 0.016ms returns 0
T1BB0 000:620.436 JLINK_WriteReg(R13 (SP), 0x1FFF9000)
T1BB0 000:620.453 - 0.017ms returns 0
T1BB0 000:620.471 JLINK_WriteReg(R14, 0x1FFF8001)
T1BB0 000:620.498 - 0.027ms returns 0
T1BB0 000:620.516 JLINK_WriteReg(R15 (PC), 0x1FFF84B4)
T1BB0 000:620.533 - 0.017ms returns 0
T1BB0 000:620.550 JLINK_WriteReg(XPSR, 0x01000000)
T1BB0 000:620.567 - 0.017ms returns 0
T1BB0 000:620.585 JLINK_WriteReg(MSP, 0x1FFF9000)
T1BB0 000:620.602 - 0.017ms returns 0
T1BB0 000:620.619 JLINK_WriteReg(PSP, 0x1FFF9000)
T1BB0 000:620.636 - 0.016ms returns 0
T1BB0 000:620.654 JLINK_WriteReg(CFBP, 0x00000000)
T1BB0 000:620.671 - 0.016ms returns 0
T1BB0 000:620.689 JLINK_SetBPEx(Addr = 0x1FFF8000, Type = 0xFFFFFFF2)
T1BB0 000:620.708 - 0.019ms returns 0x0000000A
T1BB0 000:620.726 JLINK_Go()
T1BB0 000:620.754   CPU_WriteMem(4 bytes @ 0xE0002000)
T1BB0 000:621.676   CPU_ReadMem(4 bytes @ 0xE0001000)
T1BB0 000:627.995 - 7.267ms 
T1BB0 000:628.055 JLINK_IsHalted()
T1BB0 000:633.409 - 5.352ms returns TRUE
T1BB0 000:633.469 JLINK_ReadReg(R15 (PC))
T1BB0 000:633.501 - 0.032ms returns 0x1FFF8000
T1BB0 000:633.532 JLINK_ClrBPEx(BPHandle = 0x0000000A)
T1BB0 000:633.561 - 0.028ms returns 0x00
T1BB0 000:633.592 JLINK_ReadReg(R0)
T1BB0 000:633.620 - 0.027ms returns 0x00000000
T1BB0 000:695.376 JLINK_WriteMem(0x1FFF8000, 0x670 Bytes, ...)
T1BB0 000:695.425   Data:  00 BE 0A E0 0D 78 2D 06 68 40 08 24 40 00 00 D3 ...
T1BB0 000:695.483   CPU_WriteMem(1648 bytes @ 0x1FFF8000)
T1BB0 000:712.173 - 16.795ms returns 0x670
T1BB0 000:712.370 JLINK_HasError()
T1BB0 000:712.408 JLINK_WriteReg(R0, 0x00000000)
T1BB0 000:712.444 - 0.036ms returns 0
T1BB0 000:712.472 JLINK_WriteReg(R1, 0x00B71B00)
T1BB0 000:712.499 - 0.027ms returns 0
T1BB0 000:712.527 JLINK_WriteReg(R2, 0x00000002)
T1BB0 000:712.555 - 0.028ms returns 0
T1BB0 000:712.583 JLINK_WriteReg(R3, 0x00000000)
T1BB0 000:712.610 - 0.027ms returns 0
T1BB0 000:712.638 JLINK_WriteReg(R4, 0x00000000)
T1BB0 000:712.665 - 0.027ms returns 0
T1BB0 000:712.693 JLINK_WriteReg(R5, 0x00000000)
T1BB0 000:712.720 - 0.026ms returns 0
T1BB0 000:712.748 JLINK_WriteReg(R6, 0x00000000)
T1BB0 000:712.774 - 0.026ms returns 0
T1BB0 000:712.802 JLINK_WriteReg(R7, 0x00000000)
T1BB0 000:712.829 - 0.027ms returns 0
T1BB0 000:712.857 JLINK_WriteReg(R8, 0x00000000)
T1BB0 000:712.884 - 0.027ms returns 0
T1BB0 000:712.912 JLINK_WriteReg(R9, 0x1FFF866C)
T1BB0 000:712.938 - 0.026ms returns 0
T1BB0 000:712.966 JLINK_WriteReg(R10, 0x00000000)
T1BB0 000:712.993 - 0.026ms returns 0
T1BB0 000:713.021 JLINK_WriteReg(R11, 0x00000000)
T1BB0 000:713.048 - 0.026ms returns 0
T1BB0 000:713.076 JLINK_WriteReg(R12, 0x00000000)
T1BB0 000:713.103 - 0.026ms returns 0
T1BB0 000:713.131 JLINK_WriteReg(R13 (SP), 0x1FFF9000)
T1BB0 000:713.159 - 0.028ms returns 0
T1BB0 000:713.187 JLINK_WriteReg(R14, 0x1FFF8001)
T1BB0 000:713.214 - 0.026ms returns 0
T1BB0 000:713.253 JLINK_WriteReg(R15 (PC), 0x1FFF8478)
T1BB0 000:713.280 - 0.027ms returns 0
T1BB0 000:713.309 JLINK_WriteReg(XPSR, 0x01000000)
T1BB0 000:713.336 - 0.027ms returns 0
T1BB0 000:713.364 JLINK_WriteReg(MSP, 0x1FFF9000)
T1BB0 000:713.391 - 0.026ms returns 0
T1BB0 000:713.419 JLINK_WriteReg(PSP, 0x1FFF9000)
T1BB0 000:713.445 - 0.026ms returns 0
T1BB0 000:713.473 JLINK_WriteReg(CFBP, 0x00000000)
T1BB0 000:713.500 - 0.026ms returns 0
T1BB0 000:713.530 JLINK_SetBPEx(Addr = 0x1FFF8000, Type = 0xFFFFFFF2)
T1BB0 000:713.561 - 0.032ms returns 0x0000000B
T1BB0 000:713.590 JLINK_Go()
T1BB0 000:713.630   CPU_WriteMem(4 bytes @ 0xE0002000)
T1BB0 000:714.743   CPU_ReadMem(4 bytes @ 0xE0001000)
T1BB0 000:721.147 - 7.556ms 
T1BB0 000:721.202 JLINK_IsHalted()
T1BB0 000:726.496 - 5.294ms returns TRUE
T1BB0 000:726.543 JLINK_ReadReg(R15 (PC))
T1BB0 000:726.573 - 0.030ms returns 0x1FFF8000
T1BB0 000:726.601 JLINK_ClrBPEx(BPHandle = 0x0000000B)
T1BB0 000:726.629 - 0.027ms returns 0x00
T1BB0 000:726.657 JLINK_ReadReg(R0)
T1BB0 000:726.692 - 0.035ms returns 0x00000000
T1BB0 000:727.145 JLINK_WriteMem(0x1FFF8670, 0x190 Bytes, ...)
T1BB0 000:727.182   Data:  10 8E FF 1F 21 04 00 00 0D 3B 00 00 FD 2E 00 00 ...
T1BB0 000:727.236   CPU_WriteMem(400 bytes @ 0x1FFF8670)
T1BB0 000:732.120 - 4.975ms returns 0x190
T1BB0 000:732.165 JLINK_WriteMem(0x1FFF8800, 0x70 Bytes, ...)
T1BB0 000:732.193   Data:  61 36 00 00 79 36 00 00 91 36 00 00 A9 36 00 00 ...
T1BB0 000:732.238   CPU_WriteMem(112 bytes @ 0x1FFF8800)
T1BB0 000:734.355 - 2.186ms returns 0x70
T1BB0 000:734.408 JLINK_HasError()
T1BB0 000:734.443 JLINK_WriteReg(R0, 0x00000000)
T1BB0 000:734.476 - 0.034ms returns 0
T1BB0 000:734.504 JLINK_WriteReg(R1, 0x00000200)
T1BB0 000:734.532 - 0.027ms returns 0
T1BB0 000:734.561 JLINK_WriteReg(R2, 0x1FFF8670)
T1BB0 000:734.590 - 0.028ms returns 0
T1BB0 000:734.619 JLINK_WriteReg(R3, 0x00000000)
T1BB0 000:734.645 - 0.026ms returns 0
T1BB0 000:734.674 JLINK_WriteReg(R4, 0x00000000)
T1BB0 000:734.701 - 0.026ms returns 0
T1BB0 000:734.729 JLINK_WriteReg(R5, 0x00000000)
T1BB0 000:734.756 - 0.026ms returns 0
T1BB0 000:734.783 JLINK_WriteReg(R6, 0x00000000)
T1BB0 000:734.810 - 0.026ms returns 0
T1BB0 000:734.838 JLINK_WriteReg(R7, 0x00000000)
T1BB0 000:734.866 - 0.028ms returns 0
T1BB0 000:734.895 JLINK_WriteReg(R8, 0x00000000)
T1BB0 000:734.921 - 0.027ms returns 0
T1BB0 000:734.949 JLINK_WriteReg(R9, 0x1FFF866C)
T1BB0 000:734.976 - 0.026ms returns 0
T1BB0 000:735.003 JLINK_WriteReg(R10, 0x00000000)
T1BB0 000:735.030 - 0.026ms returns 0
T1BB0 000:735.058 JLINK_WriteReg(R11, 0x00000000)
T1BB0 000:735.086 - 0.028ms returns 0
T1BB0 000:735.115 JLINK_WriteReg(R12, 0x00000000)
T1BB0 000:735.141 - 0.026ms returns 0
T1BB0 000:735.169 JLINK_WriteReg(R13 (SP), 0x1FFF9000)
T1BB0 000:735.198 - 0.029ms returns 0
T1BB0 000:735.226 JLINK_WriteReg(R14, 0x1FFF8001)
T1BB0 000:735.253 - 0.026ms returns 0
T1BB0 000:735.280 JLINK_WriteReg(R15 (PC), 0x1FFF8488)
T1BB0 000:735.309 - 0.028ms returns 0
T1BB0 000:735.337 JLINK_WriteReg(XPSR, 0x01000000)
T1BB0 000:735.364 - 0.027ms returns 0
T1BB0 000:735.392 JLINK_WriteReg(MSP, 0x1FFF9000)
T1BB0 000:735.420 - 0.027ms returns 0
T1BB0 000:735.440 JLINK_WriteReg(PSP, 0x1FFF9000)
T1BB0 000:735.456 - 0.016ms returns 0
T1BB0 000:735.474 JLINK_WriteReg(CFBP, 0x00000000)
T1BB0 000:735.490 - 0.016ms returns 0
T1BB0 000:735.509 JLINK_SetBPEx(Addr = 0x1FFF8000, Type = 0xFFFFFFF2)
T1BB0 000:735.528 - 0.019ms returns 0x0000000C
T1BB0 000:735.546 JLINK_Go()
T1BB0 000:735.570   CPU_WriteMem(4 bytes @ 0xE0002000)
T1BB0 000:736.618   CPU_ReadMem(4 bytes @ 0xE0001000)
T1BB0 000:743.020 - 7.473ms 
T1BB0 000:743.085 JLINK_IsHalted()
T1BB0 000:744.024 - 0.938ms returns FALSE
T1BB0 000:744.060 JLINK_HasError()
T1BB0 000:751.983 JLINK_IsHalted()
T1BB0 000:757.641 - 5.657ms returns TRUE
T1BB0 000:757.693 JLINK_ReadReg(R15 (PC))
T1BB0 000:757.724 - 0.031ms returns 0x1FFF8000
T1BB0 000:757.753 JLINK_ClrBPEx(BPHandle = 0x0000000C)
T1BB0 000:757.782 - 0.028ms returns 0x00
T1BB0 000:757.810 JLINK_ReadReg(R0)
T1BB0 000:757.837 - 0.027ms returns 0x00000000
T1BB0 000:758.545 JLINK_WriteMem(0x1FFF8670, 0x190 Bytes, ...)
T1BB0 000:758.587   Data:  01 39 00 00 19 39 00 00 31 39 00 00 49 39 00 00 ...
T1BB0 000:758.641   CPU_WriteMem(400 bytes @ 0x1FFF8670)
T1BB0 000:763.620 - 5.075ms returns 0x190
T1BB0 000:763.666 JLINK_WriteMem(0x1FFF8800, 0x70 Bytes, ...)
T1BB0 000:763.693   Data:  7F FB 00 F0 5D FB 04 00 00 20 00 21 06 F0 9C FD ...
T1BB0 000:763.741   CPU_WriteMem(112 bytes @ 0x1FFF8800)
T1BB0 000:765.930 - 2.264ms returns 0x70
T1BB0 000:765.965 JLINK_HasError()
T1BB0 000:765.995 JLINK_WriteReg(R0, 0x00000200)
T1BB0 000:766.025 - 0.030ms returns 0
T1BB0 000:766.053 JLINK_WriteReg(R1, 0x00000200)
T1BB0 000:766.080 - 0.027ms returns 0
T1BB0 000:766.108 JLINK_WriteReg(R2, 0x1FFF8670)
T1BB0 000:766.136 - 0.027ms returns 0
T1BB0 000:766.167 JLINK_WriteReg(R3, 0x00000000)
T1BB0 000:766.194 - 0.027ms returns 0
T1BB0 000:766.223 JLINK_WriteReg(R4, 0x00000000)
T1BB0 000:766.250 - 0.027ms returns 0
T1BB0 000:766.295 JLINK_WriteReg(R5, 0x00000000)
T1BB0 000:766.322 - 0.026ms returns 0
T1BB0 000:766.350 JLINK_WriteReg(R6, 0x00000000)
T1BB0 000:766.376 - 0.026ms returns 0
T1BB0 000:766.404 JLINK_WriteReg(R7, 0x00000000)
T1BB0 000:766.432 - 0.027ms returns 0
T1BB0 000:766.460 JLINK_WriteReg(R8, 0x00000000)
T1BB0 000:766.487 - 0.027ms returns 0
T1BB0 000:766.515 JLINK_WriteReg(R9, 0x1FFF866C)
T1BB0 000:766.541 - 0.026ms returns 0
T1BB0 000:766.569 JLINK_WriteReg(R10, 0x00000000)
T1BB0 000:766.596 - 0.027ms returns 0
T1BB0 000:766.624 JLINK_WriteReg(R11, 0x00000000)
T1BB0 000:766.651 - 0.026ms returns 0
T1BB0 000:766.679 JLINK_WriteReg(R12, 0x00000000)
T1BB0 000:766.706 - 0.027ms returns 0
T1BB0 000:766.734 JLINK_WriteReg(R13 (SP), 0x1FFF9000)
T1BB0 000:766.761 - 0.027ms returns 0
T1BB0 000:766.789 JLINK_WriteReg(R14, 0x1FFF8001)
T1BB0 000:766.816 - 0.026ms returns 0
T1BB0 000:766.844 JLINK_WriteReg(R15 (PC), 0x1FFF8488)
T1BB0 000:766.871 - 0.027ms returns 0
T1BB0 000:766.899 JLINK_WriteReg(XPSR, 0x01000000)
T1BB0 000:766.926 - 0.027ms returns 0
T1BB0 000:766.955 JLINK_WriteReg(MSP, 0x1FFF9000)
T1BB0 000:766.982 - 0.027ms returns 0
T1BB0 000:767.010 JLINK_WriteReg(PSP, 0x1FFF9000)
T1BB0 000:767.037 - 0.026ms returns 0
T1BB0 000:767.064 JLINK_WriteReg(CFBP, 0x00000000)
T1BB0 000:767.091 - 0.026ms returns 0
T1BB0 000:767.120 JLINK_SetBPEx(Addr = 0x1FFF8000, Type = 0xFFFFFFF2)
T1BB0 000:767.150 - 0.029ms returns 0x0000000D
T1BB0 000:767.178 JLINK_Go()
T1BB0 000:767.209   CPU_WriteMem(4 bytes @ 0xE0002000)
T1BB0 000:768.287   CPU_ReadMem(4 bytes @ 0xE0001000)
T1BB0 000:774.661 - 7.481ms 
T1BB0 000:774.721 JLINK_IsHalted()
T1BB0 000:775.678 - 0.957ms returns FALSE
T1BB0 000:775.701 JLINK_HasError()
T1BB0 000:776.916 JLINK_IsHalted()
T1BB0 000:782.282 - 5.366ms returns TRUE
T1BB0 000:782.317 JLINK_ReadReg(R15 (PC))
T1BB0 000:782.348 - 0.031ms returns 0x1FFF8000
T1BB0 000:782.376 JLINK_ClrBPEx(BPHandle = 0x0000000D)
T1BB0 000:782.405 - 0.028ms returns 0x00
T1BB0 000:782.434 JLINK_ReadReg(R0)
T1BB0 000:782.462 - 0.028ms returns 0x00000000
T1BB0 000:783.262 JLINK_WriteMem(0x1FFF8670, 0x190 Bytes, ...)
T1BB0 000:783.300   Data:  BF FF DF FF FF FE FF FF FF FF FF FF FF FF FF FF ...
T1BB0 000:783.333   CPU_WriteMem(400 bytes @ 0x1FFF8670)
T1BB0 000:788.244 - 4.981ms returns 0x190
T1BB0 000:788.278 JLINK_WriteMem(0x1FFF8800, 0x70 Bytes, ...)
T1BB0 000:788.295   Data:  14 44 18 BF 64 1C 4F F0 00 08 4F F0 00 09 90 42 ...
T1BB0 000:788.329   CPU_WriteMem(112 bytes @ 0x1FFF8800)
T1BB0 000:790.423 - 2.144ms returns 0x70
T1BB0 000:790.465 JLINK_HasError()
T1BB0 000:790.496 JLINK_WriteReg(R0, 0x00000400)
T1BB0 000:790.527 - 0.031ms returns 0
T1BB0 000:790.556 JLINK_WriteReg(R1, 0x00000200)
T1BB0 000:790.583 - 0.027ms returns 0
T1BB0 000:790.612 JLINK_WriteReg(R2, 0x1FFF8670)
T1BB0 000:790.639 - 0.027ms returns 0
T1BB0 000:790.667 JLINK_WriteReg(R3, 0x00000000)
T1BB0 000:790.693 - 0.026ms returns 0
T1BB0 000:790.722 JLINK_WriteReg(R4, 0x00000000)
T1BB0 000:790.749 - 0.026ms returns 0
T1BB0 000:790.777 JLINK_WriteReg(R5, 0x00000000)
T1BB0 000:790.803 - 0.026ms returns 0
T1BB0 000:790.832 JLINK_WriteReg(R6, 0x00000000)
T1BB0 000:790.860 - 0.027ms returns 0
T1BB0 000:790.888 JLINK_WriteReg(R7, 0x00000000)
T1BB0 000:790.915 - 0.027ms returns 0
T1BB0 000:790.943 JLINK_WriteReg(R8, 0x00000000)
T1BB0 000:790.970 - 0.027ms returns 0
T1BB0 000:791.002 JLINK_WriteReg(R9, 0x1FFF866C)
T1BB0 000:791.029 - 0.027ms returns 0
T1BB0 000:791.056 JLINK_WriteReg(R10, 0x00000000)
T1BB0 000:791.084 - 0.028ms returns 0
T1BB0 000:791.112 JLINK_WriteReg(R11, 0x00000000)
T1BB0 000:791.139 - 0.026ms returns 0
T1BB0 000:791.167 JLINK_WriteReg(R12, 0x00000000)
T1BB0 000:791.195 - 0.027ms returns 0
T1BB0 000:791.223 JLINK_WriteReg(R13 (SP), 0x1FFF9000)
T1BB0 000:791.251 - 0.028ms returns 0
T1BB0 000:791.279 JLINK_WriteReg(R14, 0x1FFF8001)
T1BB0 000:791.305 - 0.026ms returns 0
T1BB0 000:791.333 JLINK_WriteReg(R15 (PC), 0x1FFF8488)
T1BB0 000:791.365 - 0.032ms returns 0
T1BB0 000:791.402 JLINK_WriteReg(XPSR, 0x01000000)
T1BB0 000:791.433 - 0.031ms returns 0
T1BB0 000:791.461 JLINK_WriteReg(MSP, 0x1FFF9000)
T1BB0 000:791.487 - 0.026ms returns 0
T1BB0 000:791.515 JLINK_WriteReg(PSP, 0x1FFF9000)
T1BB0 000:791.542 - 0.027ms returns 0
T1BB0 000:791.570 JLINK_WriteReg(CFBP, 0x00000000)
T1BB0 000:791.598 - 0.027ms returns 0
T1BB0 000:791.627 JLINK_SetBPEx(Addr = 0x1FFF8000, Type = 0xFFFFFFF2)
T1BB0 000:791.656 - 0.029ms returns 0x0000000E
T1BB0 000:791.684 JLINK_Go()
T1BB0 000:791.716   CPU_WriteMem(4 bytes @ 0xE0002000)
T1BB0 000:792.688   CPU_ReadMem(4 bytes @ 0xE0001000)
T1BB0 000:798.976 - 7.290ms 
T1BB0 000:799.032 JLINK_IsHalted()
T1BB0 000:800.062 - 1.029ms returns FALSE
T1BB0 000:800.131 JLINK_HasError()
T1BB0 000:805.397 JLINK_IsHalted()
T1BB0 000:810.921 - 5.523ms returns TRUE
T1BB0 000:810.968 JLINK_ReadReg(R15 (PC))
T1BB0 000:811.004 - 0.035ms returns 0x1FFF8000
T1BB0 000:811.037 JLINK_ClrBPEx(BPHandle = 0x0000000E)
T1BB0 000:811.066 - 0.029ms returns 0x00
T1BB0 000:811.094 JLINK_ReadReg(R0)
T1BB0 000:811.121 - 0.027ms returns 0x00000000
T1BB0 000:811.763 JLINK_WriteMem(0x1FFF8670, 0x190 Bytes, ...)
T1BB0 000:811.804   Data:  0B 09 48 EB 06 08 AB FB 02 7C 06 FB 02 CC 0B FB ...
T1BB0 000:811.855   CPU_WriteMem(400 bytes @ 0x1FFF8670)
T1BB0 000:816.819 - 5.054ms returns 0x190
T1BB0 000:816.893 JLINK_WriteMem(0x1FFF8800, 0x70 Bytes, ...)
T1BB0 000:816.925   Data:  04 06 C4 F8 1C A0 00 27 C4 F8 18 A0 2A 2D 09 D0 ...
T1BB0 000:816.980   CPU_WriteMem(112 bytes @ 0x1FFF8800)
T1BB0 000:819.155 - 2.261ms returns 0x70
T1BB0 000:819.209 JLINK_HasError()
T1BB0 000:819.242 JLINK_WriteReg(R0, 0x00000600)
T1BB0 000:819.275 - 0.033ms returns 0
T1BB0 000:819.306 JLINK_WriteReg(R1, 0x00000200)
T1BB0 000:819.336 - 0.029ms returns 0
T1BB0 000:819.367 JLINK_WriteReg(R2, 0x1FFF8670)
T1BB0 000:819.396 - 0.029ms returns 0
